T9494 000:009.231   SEGGER J-Link V7.98a Log File
T9494 000:009.389   DLL Compiled: Jul 19 2024 14:57:58
T9494 000:009.411   Logging started @ 2024-10-17 17:43
T9494 000:009.431   Process: C:\Keil_v5\UV4\UV4.exe
T9494 000:009.454 - 9.451ms
T9494 000:009.480 JLINK_SetWarnOutHandler(...)
T9494 000:009.501 - 0.022ms
T9494 000:009.524 JLINK_OpenEx(...)
T9494 000:012.496   Firmware: J-Link V11 compiled May 28 2024 15:36:02
T9494 000:013.862   Firmware: J-Link V11 compiled May 28 2024 15:36:02
T9494 000:032.695   Hardware: V11.00
T9494 000:032.776   S/N: 601009657
T9494 000:032.815   OEM: SEGGER
T9494 000:032.853   Feature(s): RDI, FlashBP, FlashDL, JFlash, GDB
T9494 000:034.899   Bootloader: 2019 Jul 04
T9494 000:035.708   USB speed mode: High speed (480 MBit/s)
T9494 000:036.167   TELNET listener socket opened on port 19021
T9494 000:036.462   WEBSRV WEBSRV_Init(): Starting webserver thread(s)
T9494 000:036.732   WEBSRV Webserver running on local port 19080
T9494 000:036.979   Looking for J-Link GUI Server exe at: C:\Keil_v5\ARM\Segger\JLinkGUIServer.exe
T9494 000:037.182   Looking for J-Link GUI Server exe at: C:\Program Files\SEGGER\JLink\JLinkGUIServer.exe
T9494 000:037.273   Forking J-Link GUI Server: C:\Program Files\SEGGER\JLink\JLinkGUIServer.exe
T9494 000:091.200   J-Link GUI Server info: "J-Link GUI server V7.98a "
T9494 000:116.859 - 107.324ms returns "O.K."
T9494 000:116.931 JLINK_GetEmuCaps()
T9494 000:116.954 - 0.020ms returns 0xB9FF7BBF
T9494 000:116.976 JLINK_TIF_GetAvailable(...)
T9494 000:117.441 - 0.464ms
T9494 000:117.487 JLINK_SetErrorOutHandler(...)
T9494 000:117.509 - 0.021ms
T9494 000:117.552 JLINK_ExecCommand("ProjectFile = "C:\02_Work_Space\16_Test_Code\36_Key_LED_Bridge_Pattern\09_Key_LED_Bridge_Pattern\MDK-ARM\JLinkSettings.ini"", ...). 
T9494 000:133.650   Ref file found at: C:\Keil_v5\ARM\Segger\JLinkDevices.ref
T9494 000:133.831   REF file references invalid XML file: C:\Program Files\SEGGER\JLink\JLinkDevices.xml
T9494 000:135.873 - 18.323ms returns 0x00
T9494 000:179.569 JLINK_ExecCommand("Device = STM32F411CEUx", ...). 
T9494 000:399.023   Device "STM32F411CE" selected.
T9494 000:399.958 - 220.331ms returns 0x00
T9494 000:400.059 JLINK_ExecCommand("DisableConnectionTimeout", ...). 
T9494 000:400.095   ERROR: Unknown command
T9494 000:400.140 - 0.052ms returns 0x01
T9494 000:400.191 JLINK_GetHardwareVersion()
T9494 000:400.226 - 0.045ms returns 110000
T9494 000:400.261 JLINK_GetDLLVersion()
T9494 000:400.292 - 0.030ms returns 79801
T9494 000:400.326 JLINK_GetOEMString(...)
T9494 000:400.361 JLINK_GetFirmwareString(...)
T9494 000:400.383 - 0.022ms
T9494 000:520.946 JLINK_GetDLLVersion()
T9494 000:521.020 - 0.072ms returns 79801
T9494 000:521.047 JLINK_GetCompileDateTime()
T9494 000:521.071 - 0.023ms
T9494 000:525.558 JLINK_GetFirmwareString(...)
T9494 000:525.613 - 0.054ms
T9494 000:536.951 JLINK_GetHardwareVersion()
T9494 000:537.008 - 0.056ms returns 110000
T9494 000:543.299 JLINK_GetSN()
T9494 000:543.367 - 0.068ms returns 601009657
T9494 000:557.222 JLINK_GetOEMString(...)
T9494 000:615.468 JLINK_TIF_Select(JLINKARM_TIF_SWD)
T9494 000:617.380 - 1.911ms returns 0x00
T9494 000:617.436 JLINK_HasError()
T9494 000:617.484 JLINK_SetSpeed(1000)
T9494 000:617.899 - 0.418ms
T9494 000:617.935 JLINK_GetId()
T9494 000:625.310   InitTarget() start
T9494 000:625.371    J-Link Script File: Executing InitTarget()
T9494 000:657.973   SWD selected. Executing JTAG -> SWD switching sequence.
T9494 000:689.279   DAP initialized successfully.
T9494 000:725.975   InitTarget() end - Took 74.7ms
T9494 000:825.796   Found SW-DP with ID 0x2BA01477
T9494 000:881.040   DPIDR: 0x2BA01477
T9494 000:957.762   CoreSight SoC-400 or earlier
T9494 001:026.143   Scanning AP map to find all available APs
T9494 001:385.468   AP[1]: Stopped AP scan as end of AP map has been reached
T9494 001:430.887   AP[0]: AHB-AP (IDR: 0x24770011)
T9494 001:564.236   Iterating through AP map to find AHB-AP to use
T9494 001:833.675   AP[0]: Core found
T9494 001:954.785   AP[0]: AHB-AP ROM base: 0xE00FF000
T9494 001:971.299   CPUID register: 0x410FC241. Implementer code: 0x41 (ARM)
T9494 001:996.845   Found Cortex-M4 r0p1, Little endian.
T9494 001:997.865   -- Max. mem block: 0x00004E40
T9494 002:085.952   Cortex-M: The connected J-Link (S/N 601009657) uses an old firmware module: V2 (current is 3)
T9494 002:086.071   CPU_ReadMem(4 bytes @ 0xE000EDF0)
T9494 002:086.926   CPU_ReadMem(4 bytes @ 0xE0002000)
T9494 002:107.908   FPUnit: 6 code (BP) slots and 2 literal slots
T9494 002:108.043   CPU_ReadMem(4 bytes @ 0xE000EDFC)
T9494 002:108.972   CPU_WriteMem(4 bytes @ 0xE000EDFC)
T9494 002:109.853   CPU_ReadMem(4 bytes @ 0xE0001000)
T9494 002:110.688   CPU_WriteMem(4 bytes @ 0xE0001000)
T9494 002:111.447   CPU_ReadMem(4 bytes @ 0xE000ED88)
T9494 002:112.262   CPU_WriteMem(4 bytes @ 0xE000ED88)
T9494 002:113.045   CPU_ReadMem(4 bytes @ 0xE000ED88)
T9494 002:113.828   CPU_WriteMem(4 bytes @ 0xE000ED88)
T9494 002:142.866   CoreSight components:
T9494 002:173.566   ROMTbl[0] @ E00FF000
T9494 002:173.649   CPU_ReadMem(64 bytes @ 0xE00FF000)
T9494 002:175.292   CPU_ReadMem(32 bytes @ 0xE000EFE0)
T9494 002:205.151   [0][0]: E000E000 CID B105E00D PID 000BB00C SCS-M7
T9494 002:205.241   CPU_ReadMem(32 bytes @ 0xE0001FE0)
T9494 002:277.622   [0][1]: E0001000 CID B105E00D PID 003BB002 DWT
T9494 002:277.773   CPU_ReadMem(32 bytes @ 0xE0002FE0)
T9494 002:326.401   [0][2]: E0002000 CID B105E00D PID 002BB003 FPB
T9494 002:326.488   CPU_ReadMem(32 bytes @ 0xE0000FE0)
T9494 002:347.031   [0][3]: E0000000 CID B105E00D PID 003BB001 ITM
T9494 002:347.142   CPU_ReadMem(32 bytes @ 0xE0040FE0)
T9494 002:388.703   [0][4]: E0040000 CID B105900D PID 000BB9A1 TPIU
T9494 002:388.792   CPU_ReadMem(32 bytes @ 0xE0041FE0)
T9494 002:424.570   [0][5]: E0041000 CID B105900D PID 000BB925 ETM
T9494 002:425.216 - 1807.279ms returns 0x2BA01477
T9494 002:425.273 JLINK_GetDLLVersion()
T9494 002:425.294 - 0.021ms returns 79801
T9494 002:425.319 JLINK_CORE_GetFound()
T9494 002:425.340 - 0.020ms returns 0xE0000FF
T9494 002:425.365 JLINK_GetDebugInfo(0x100 = JLINKARM_ROM_TABLE_ADDR_INDEX)
T9494 002:425.387   Value=0xE00FF000
T9494 002:425.417 - 0.053ms returns 0
T9494 002:437.835 JLINK_GetDebugInfo(0x100 = JLINKARM_ROM_TABLE_ADDR_INDEX)
T9494 002:437.900   Value=0xE00FF000
T9494 002:437.931 - 0.096ms returns 0
T9494 002:437.953 JLINK_GetDebugInfo(0x101 = JLINKARM_DEBUG_INFO_ETM_ADDR_INDEX)
T9494 002:437.973   Value=0xE0041000
T9494 002:438.002 - 0.049ms returns 0
T9494 002:438.024 JLINK_ReadMemEx(0xE0041FD0, 0x20 Bytes, Flags = 0x02000004)
T9494 002:438.073   CPU_ReadMem(32 bytes @ 0xE0041FD0)
T9494 002:439.196   Data:  04 00 00 00 00 00 00 00 00 00 00 00 00 00 00 00 ...
T9494 002:439.262 - 1.237ms returns 32 (0x20)
T9494 002:439.293 JLINK_GetDebugInfo(0x102 = JLINKARM_DEBUG_INFO_MTB_ADDR_INDEX)
T9494 002:439.317   Value=0x00000000
T9494 002:439.351 - 0.058ms returns 0
T9494 002:439.375 JLINK_GetDebugInfo(0x103 = JLINKARM_DEBUG_INFO_TPIU_ADDR_INDEX)
T9494 002:439.398   Value=0xE0040000
T9494 002:439.554 - 0.179ms returns 0
T9494 002:439.579 JLINK_GetDebugInfo(0x104 = JLINKARM_DEBUG_INFO_ITM_ADDR_INDEX)
T9494 002:439.626   Value=0xE0000000
T9494 002:439.660 - 0.081ms returns 0
T9494 002:439.684 JLINK_GetDebugInfo(0x105 = JLINKARM_DEBUG_INFO_DWT_ADDR_INDEX)
T9494 002:439.707   Value=0xE0001000
T9494 002:439.740 - 0.056ms returns 0
T9494 002:439.764 JLINK_GetDebugInfo(0x106 = JLINKARM_DEBUG_INFO_FPB_ADDR_INDEX)
T9494 002:439.787   Value=0xE0002000
T9494 002:439.820 - 0.056ms returns 0
T9494 002:439.844 JLINK_GetDebugInfo(0x107 = JLINKARM_DEBUG_INFO_NVIC_ADDR_INDEX)
T9494 002:439.867   Value=0xE000E000
T9494 002:439.900 - 0.056ms returns 0
T9494 002:439.924 JLINK_GetDebugInfo(0x10C = JLINKARM_DEBUG_INFO_DBG_ADDR_INDEX)
T9494 002:439.946   Value=0xE000EDF0
T9494 002:439.980 - 0.056ms returns 0
T9494 002:440.004 JLINK_GetDebugInfo(0x01 = Unknown)
T9494 002:440.027   Value=0x00000001
T9494 002:440.060 - 0.056ms returns 0
T9494 002:440.084 JLINK_ReadMemU32(0xE000ED00, 0x1 Items)
T9494 002:440.117   CPU_ReadMem(4 bytes @ 0xE000ED00)
T9494 002:440.826   Data:  41 C2 0F 41
T9494 002:440.876   Debug reg: CPUID
T9494 002:440.906 - 0.821ms returns 1 (0x1)
T9494 002:440.932 JLINK_GetDebugInfo(0x10F = JLINKARM_DEBUG_INFO_HAS_CORTEX_M_SECURITY_EXT_INDEX)
T9494 002:440.952   Value=0x00000000
T9494 002:440.982 - 0.050ms returns 0
T9494 002:441.005 JLINK_HasError()
T9494 002:441.028 JLINK_SetResetType(JLINKARM_CM3_RESET_TYPE_NORMAL)
T9494 002:441.049 - 0.021ms returns JLINKARM_CM3_RESET_TYPE_NORMAL
T9494 002:441.070 JLINK_Reset()
T9494 002:441.103   CPU is running
T9494 002:441.136   CPU_WriteMem(4 bytes @ 0xE000EDF0)
T9494 002:441.864   CPU is running
T9494 002:441.961   CPU_WriteMem(4 bytes @ 0xE000EDFC)
T9494 002:450.516   Reset: Halt core after reset via DEMCR.VC_CORERESET.
T9494 002:462.345   Reset: Reset device via AIRCR.SYSRESETREQ.
T9494 002:462.457   CPU is running
T9494 002:462.507   CPU_WriteMem(4 bytes @ 0xE000ED0C)
T9494 002:517.683   CPU_ReadMem(4 bytes @ 0xE000EDF0)
T9494 002:518.572   CPU_ReadMem(4 bytes @ 0xE000EDF0)
T9494 002:525.903   CPU_WriteMem(4 bytes @ 0xE000EDFC)
T9494 002:532.162   CPU_ReadMem(4 bytes @ 0xE000EDF0)
T9494 002:539.710   CPU_WriteMem(4 bytes @ 0xE0002000)
T9494 002:540.533   CPU_ReadMem(4 bytes @ 0xE000EDFC)
T9494 002:541.373   CPU_ReadMem(4 bytes @ 0xE0001000)
T9494 002:542.247 - 101.175ms
T9494 002:542.330 JLINK_Halt()
T9494 002:542.362 - 0.031ms returns 0x00
T9494 002:542.398 JLINK_ReadMemU32(0xE000EDF0, 0x1 Items)
T9494 002:542.447   CPU_ReadMem(4 bytes @ 0xE000EDF0)
T9494 002:543.239   Data:  03 00 03 00
T9494 002:543.302   Debug reg: DHCSR
T9494 002:543.336 - 0.937ms returns 1 (0x1)
T9494 002:543.424 JLINK_WriteU32_64(0xE000EDF0, 0xA05F0003)
T9494 002:543.462   Debug reg: DHCSR
T9494 002:543.889   CPU_WriteMem(4 bytes @ 0xE000EDF0)
T9494 002:544.630 - 1.205ms returns 0 (0x00000000)
T9494 002:544.687 JLINK_WriteU32_64(0xE000EDFC, 0x01000000)
T9494 002:544.710   Debug reg: DEMCR
T9494 002:544.750   CPU_WriteMem(4 bytes @ 0xE000EDFC)
T9494 002:545.482 - 0.794ms returns 0 (0x00000000)
T9494 002:716.996 JLINK_GetHWStatus(...)
T9494 002:717.519 - 0.522ms returns 0
T9494 002:768.542 JLINK_GetNumBPUnits(Type = 0xFFFFFF00)
T9494 002:768.614 - 0.071ms returns 0x06
T9494 002:768.644 JLINK_GetNumBPUnits(Type = 0xF0)
T9494 002:768.670 - 0.026ms returns 0x2000
T9494 002:768.698 JLINK_GetNumWPUnits()
T9494 002:768.723 - 0.024ms returns 4
T9494 002:807.682 JLINK_GetSpeed()
T9494 002:807.737 - 0.054ms returns 1000
T9494 002:825.315 JLINK_ReadMemU32(0xE000E004, 0x1 Items)
T9494 002:825.398   CPU_ReadMem(4 bytes @ 0xE000E004)
T9494 002:826.253   Data:  02 00 00 00
T9494 002:826.327 - 1.012ms returns 1 (0x1)
T9494 002:826.388 JLINK_ReadMemU32(0xE000E004, 0x1 Items)
T9494 002:826.461   CPU_ReadMem(4 bytes @ 0xE000E004)
T9494 002:827.226   Data:  02 00 00 00
T9494 002:827.293 - 0.904ms returns 1 (0x1)
T9494 002:827.332 JLINK_WriteMemEx(0xE0001000, 0x0000001C Bytes, Flags = 0x02000004)
T9494 002:827.362   Data:  01 00 00 00 00 00 00 00 00 00 00 00 00 00 00 00 ...
T9494 002:827.420   CPU_WriteMem(28 bytes @ 0xE0001000)
T9494 002:828.495 - 1.163ms returns 0x1C
T9494 002:828.545 JLINK_Halt()
T9494 002:828.570 - 0.025ms returns 0x00
T9494 002:828.595 JLINK_IsHalted()
T9494 002:828.622 - 0.026ms returns TRUE
T9494 002:840.498 JLINK_WriteMem(0x20000000, 0x188 Bytes, ...)
T9494 002:840.538   Data:  00 BE 0A E0 0D 78 2D 06 68 40 08 24 40 00 00 D3 ...
T9494 002:840.982   CPU_WriteMem(392 bytes @ 0x20000000)
T9494 002:846.506 - 6.006ms returns 0x188
T9494 002:846.605 JLINK_HasError()
T9494 002:846.640 JLINK_WriteReg(R0, 0x08000000)
T9494 002:846.668 - 0.035ms returns 0
T9494 002:846.693 JLINK_WriteReg(R1, 0x017D7840)
T9494 002:846.716 - 0.023ms returns 0
T9494 002:846.740 JLINK_WriteReg(R2, 0x00000001)
T9494 002:846.763 - 0.023ms returns 0
T9494 002:846.787 JLINK_WriteReg(R3, 0x00000000)
T9494 002:846.810 - 0.022ms returns 0
T9494 002:846.833 JLINK_WriteReg(R4, 0x00000000)
T9494 002:846.856 - 0.022ms returns 0
T9494 002:846.880 JLINK_WriteReg(R5, 0x00000000)
T9494 002:846.909 - 0.028ms returns 0
T9494 002:846.932 JLINK_WriteReg(R6, 0x00000000)
T9494 002:846.956 - 0.023ms returns 0
T9494 002:846.979 JLINK_WriteReg(R7, 0x00000000)
T9494 002:847.002 - 0.022ms returns 0
T9494 002:847.028 JLINK_WriteReg(R8, 0x00000000)
T9494 002:847.051 - 0.024ms returns 0
T9494 002:847.074 JLINK_WriteReg(R9, 0x20000184)
T9494 002:847.097 - 0.022ms returns 0
T9494 002:847.121 JLINK_WriteReg(R10, 0x00000000)
T9494 002:847.144 - 0.022ms returns 0
T9494 002:847.167 JLINK_WriteReg(R11, 0x00000000)
T9494 002:847.197 - 0.029ms returns 0
T9494 002:847.221 JLINK_WriteReg(R12, 0x00000000)
T9494 002:847.244 - 0.023ms returns 0
T9494 002:847.268 JLINK_WriteReg(R13 (SP), 0x20001000)
T9494 002:847.293 - 0.024ms returns 0
T9494 002:847.316 JLINK_WriteReg(R14, 0x20000001)
T9494 002:847.339 - 0.023ms returns 0
T9494 002:847.365 JLINK_WriteReg(R15 (PC), 0x2000005E)
T9494 002:847.388 - 0.025ms returns 0
T9494 002:847.415 JLINK_WriteReg(XPSR, 0x01000000)
T9494 002:847.438 - 0.023ms returns 0
T9494 002:847.465 JLINK_WriteReg(MSP, 0x20001000)
T9494 002:847.488 - 0.023ms returns 0
T9494 002:847.516 JLINK_WriteReg(PSP, 0x20001000)
T9494 002:847.539 - 0.023ms returns 0
T9494 002:847.567 JLINK_WriteReg(CFBP, 0x00000000)
T9494 002:847.590 - 0.024ms returns 0
T9494 002:847.619 JLINK_SetBPEx(Addr = 0x20000000, Type = 0xFFFFFFF2)
T9494 002:847.650   CPU_ReadMem(2 bytes @ 0x20000000)
T9494 002:848.364 - 0.744ms returns 0x00000001
T9494 002:848.407 JLINK_Go()
T9494 002:848.432   CPU_WriteMem(2 bytes @ 0x20000000)
T9494 002:849.272   CPU_ReadMem(4 bytes @ 0xE0001000)
T9494 002:850.071   CPU_WriteMem(4 bytes @ 0xE0002008)
T9494 002:850.136   CPU_WriteMem(4 bytes @ 0xE000200C)
T9494 002:850.198   CPU_WriteMem(4 bytes @ 0xE0002010)
T9494 002:850.237   CPU_WriteMem(4 bytes @ 0xE0002014)
T9494 002:850.266   CPU_WriteMem(4 bytes @ 0xE0002018)
T9494 002:850.295   CPU_WriteMem(4 bytes @ 0xE000201C)
T9494 002:852.839   CPU_WriteMem(4 bytes @ 0xE0001004)
T9494 002:874.054   Memory map 'after startup completion point' is active
T9494 002:874.130 - 25.722ms
T9494 002:874.167 JLINK_IsHalted()
T9494 002:880.708   CPU_ReadMem(2 bytes @ 0x20000000)
T9494 002:881.566 - 7.397ms returns TRUE
T9494 002:881.678 JLINK_ReadReg(R15 (PC))
T9494 002:881.712 - 0.034ms returns 0x20000000
T9494 002:881.740 JLINK_ClrBPEx(BPHandle = 0x00000001)
T9494 002:881.766 - 0.025ms returns 0x00
T9494 002:881.792 JLINK_ReadReg(R0)
T9494 002:881.901 - 0.109ms returns 0x00000000
T9494 002:883.345 JLINK_HasError()
T9494 002:883.403 JLINK_WriteReg(R0, 0x08000000)
T9494 002:883.436 - 0.032ms returns 0
T9494 002:883.465 JLINK_WriteReg(R1, 0x00004000)
T9494 002:883.493 - 0.027ms returns 0
T9494 002:883.521 JLINK_WriteReg(R2, 0x000000FF)
T9494 002:883.548 - 0.027ms returns 0
T9494 002:883.576 JLINK_WriteReg(R3, 0x00000000)
T9494 002:883.604 - 0.027ms returns 0
T9494 002:883.632 JLINK_WriteReg(R4, 0x00000000)
T9494 002:883.660 - 0.027ms returns 0
T9494 002:883.688 JLINK_WriteReg(R5, 0x00000000)
T9494 002:883.715 - 0.027ms returns 0
T9494 002:883.744 JLINK_WriteReg(R6, 0x00000000)
T9494 002:883.771 - 0.026ms returns 0
T9494 002:883.799 JLINK_WriteReg(R7, 0x00000000)
T9494 002:883.825 - 0.026ms returns 0
T9494 002:883.854 JLINK_WriteReg(R8, 0x00000000)
T9494 002:883.881 - 0.027ms returns 0
T9494 002:883.909 JLINK_WriteReg(R9, 0x20000184)
T9494 002:883.936 - 0.027ms returns 0
T9494 002:883.964 JLINK_WriteReg(R10, 0x00000000)
T9494 002:883.991 - 0.027ms returns 0
T9494 002:884.019 JLINK_WriteReg(R11, 0x00000000)
T9494 002:884.046 - 0.026ms returns 0
T9494 002:884.073 JLINK_WriteReg(R12, 0x00000000)
T9494 002:884.100 - 0.026ms returns 0
T9494 002:884.129 JLINK_WriteReg(R13 (SP), 0x20001000)
T9494 002:884.157 - 0.029ms returns 0
T9494 002:884.185 JLINK_WriteReg(R14, 0x20000001)
T9494 002:884.212 - 0.026ms returns 0
T9494 002:884.240 JLINK_WriteReg(R15 (PC), 0x20000020)
T9494 002:884.267 - 0.027ms returns 0
T9494 002:884.295 JLINK_WriteReg(XPSR, 0x01000000)
T9494 002:884.426 - 0.130ms returns 0
T9494 002:884.503 JLINK_WriteReg(MSP, 0x20001000)
T9494 002:884.530 - 0.027ms returns 0
T9494 002:884.555 JLINK_WriteReg(PSP, 0x20001000)
T9494 002:884.579 - 0.023ms returns 0
T9494 002:884.603 JLINK_WriteReg(CFBP, 0x00000000)
T9494 002:884.626 - 0.022ms returns 0
T9494 002:884.651 JLINK_SetBPEx(Addr = 0x20000000, Type = 0xFFFFFFF2)
T9494 002:884.677 - 0.026ms returns 0x00000002
T9494 002:884.701 JLINK_Go()
T9494 002:884.743   CPU_ReadMem(4 bytes @ 0xE0001000)
T9494 002:891.325 - 6.622ms
T9494 002:891.372 JLINK_IsHalted()
T9494 002:897.920   CPU_ReadMem(2 bytes @ 0x20000000)
T9494 002:898.753 - 7.379ms returns TRUE
T9494 002:898.868 JLINK_ReadReg(R15 (PC))
T9494 002:898.898 - 0.030ms returns 0x20000000
T9494 002:898.936 JLINK_ClrBPEx(BPHandle = 0x00000002)
T9494 002:898.980 - 0.045ms returns 0x00
T9494 002:899.008 JLINK_ReadReg(R0)
T9494 002:899.033 - 0.024ms returns 0x00000001
T9494 002:899.059 JLINK_HasError()
T9494 002:899.084 JLINK_WriteReg(R0, 0x08000000)
T9494 002:899.108 - 0.023ms returns 0
T9494 002:899.131 JLINK_WriteReg(R1, 0x00004000)
T9494 002:899.154 - 0.022ms returns 0
T9494 002:899.178 JLINK_WriteReg(R2, 0x000000FF)
T9494 002:899.200 - 0.022ms returns 0
T9494 002:899.224 JLINK_WriteReg(R3, 0x00000000)
T9494 002:899.272 - 0.047ms returns 0
T9494 002:899.301 JLINK_WriteReg(R4, 0x00000000)
T9494 002:899.321 - 0.020ms returns 0
T9494 002:899.379 JLINK_WriteReg(R5, 0x00000000)
T9494 002:899.424 - 0.045ms returns 0
T9494 002:899.454 JLINK_WriteReg(R6, 0x00000000)
T9494 002:899.483 - 0.028ms returns 0
T9494 002:899.512 JLINK_WriteReg(R7, 0x00000000)
T9494 002:899.540 - 0.028ms returns 0
T9494 002:899.569 JLINK_WriteReg(R8, 0x00000000)
T9494 002:899.598 - 0.028ms returns 0
T9494 002:899.627 JLINK_WriteReg(R9, 0x20000184)
T9494 002:899.655 - 0.027ms returns 0
T9494 002:899.683 JLINK_WriteReg(R10, 0x00000000)
T9494 002:899.710 - 0.027ms returns 0
T9494 002:899.738 JLINK_WriteReg(R11, 0x00000000)
T9494 002:899.766 - 0.027ms returns 0
T9494 002:899.794 JLINK_WriteReg(R12, 0x00000000)
T9494 002:899.821 - 0.027ms returns 0
T9494 002:899.850 JLINK_WriteReg(R13 (SP), 0x20001000)
T9494 002:899.878 - 0.029ms returns 0
T9494 002:899.907 JLINK_WriteReg(R14, 0x20000001)
T9494 002:899.934 - 0.027ms returns 0
T9494 002:899.963 JLINK_WriteReg(R15 (PC), 0x200000C6)
T9494 002:899.990 - 0.027ms returns 0
T9494 002:900.018 JLINK_WriteReg(XPSR, 0x01000000)
T9494 002:900.046 - 0.027ms returns 0
T9494 002:900.074 JLINK_WriteReg(MSP, 0x20001000)
T9494 002:900.100 - 0.026ms returns 0
T9494 002:900.128 JLINK_WriteReg(PSP, 0x20001000)
T9494 002:900.155 - 0.027ms returns 0
T9494 002:900.184 JLINK_WriteReg(CFBP, 0x00000000)
T9494 002:900.211 - 0.027ms returns 0
T9494 002:900.242 JLINK_SetBPEx(Addr = 0x20000000, Type = 0xFFFFFFF2)
T9494 002:900.273 - 0.031ms returns 0x00000003
T9494 002:900.303 JLINK_Go()
T9494 002:900.350   CPU_ReadMem(4 bytes @ 0xE0001000)
T9494 002:906.872 - 6.568ms
T9494 002:906.923 JLINK_IsHalted()
T9494 002:907.691 - 0.767ms returns FALSE
T9494 002:907.732 JLINK_HasError()
T9494 003:245.936 JLINK_IsHalted()
T9494 003:252.623   CPU_ReadMem(2 bytes @ 0x20000000)
T9494 003:253.523 - 7.584ms returns TRUE
T9494 003:253.601 JLINK_ReadReg(R15 (PC))
T9494 003:253.638 - 0.037ms returns 0x20000000
T9494 003:253.668 JLINK_ClrBPEx(BPHandle = 0x00000003)
T9494 003:253.697 - 0.029ms returns 0x00
T9494 003:253.726 JLINK_ReadReg(R0)
T9494 003:253.754 - 0.028ms returns 0x00000000
T9494 003:256.224 JLINK_HasError()
T9494 003:256.293 JLINK_WriteReg(R0, 0x00000001)
T9494 003:256.329 - 0.036ms returns 0
T9494 003:256.360 JLINK_WriteReg(R1, 0x00004000)
T9494 003:256.388 - 0.028ms returns 0
T9494 003:256.418 JLINK_WriteReg(R2, 0x000000FF)
T9494 003:256.445 - 0.027ms returns 0
T9494 003:256.474 JLINK_WriteReg(R3, 0x00000000)
T9494 003:256.562 - 0.086ms returns 0
T9494 003:256.590 JLINK_WriteReg(R4, 0x00000000)
T9494 003:256.614 - 0.023ms returns 0
T9494 003:256.638 JLINK_WriteReg(R5, 0x00000000)
T9494 003:256.661 - 0.023ms returns 0
T9494 003:256.697 JLINK_WriteReg(R6, 0x00000000)
T9494 003:256.720 - 0.022ms returns 0
T9494 003:256.744 JLINK_WriteReg(R7, 0x00000000)
T9494 003:256.766 - 0.022ms returns 0
T9494 003:256.790 JLINK_WriteReg(R8, 0x00000000)
T9494 003:256.812 - 0.022ms returns 0
T9494 003:256.873 JLINK_WriteReg(R9, 0x20000184)
T9494 003:256.930 - 0.056ms returns 0
T9494 003:256.961 JLINK_WriteReg(R10, 0x00000000)
T9494 003:256.983 - 0.022ms returns 0
T9494 003:257.010 JLINK_WriteReg(R11, 0x00000000)
T9494 003:257.032 - 0.022ms returns 0
T9494 003:257.054 JLINK_WriteReg(R12, 0x00000000)
T9494 003:257.076 - 0.022ms returns 0
T9494 003:257.099 JLINK_WriteReg(R13 (SP), 0x20001000)
T9494 003:257.122 - 0.023ms returns 0
T9494 003:257.144 JLINK_WriteReg(R14, 0x20000001)
T9494 003:257.168 - 0.023ms returns 0
T9494 003:257.190 JLINK_WriteReg(R15 (PC), 0x2000008C)
T9494 003:257.212 - 0.022ms returns 0
T9494 003:257.235 JLINK_WriteReg(XPSR, 0x01000000)
T9494 003:257.257 - 0.022ms returns 0
T9494 003:257.279 JLINK_WriteReg(MSP, 0x20001000)
T9494 003:257.301 - 0.021ms returns 0
T9494 003:257.323 JLINK_WriteReg(PSP, 0x20001000)
T9494 003:257.345 - 0.021ms returns 0
T9494 003:257.368 JLINK_WriteReg(CFBP, 0x00000000)
T9494 003:257.390 - 0.021ms returns 0
T9494 003:257.414 JLINK_SetBPEx(Addr = 0x20000000, Type = 0xFFFFFFF2)
T9494 003:257.439 - 0.025ms returns 0x00000004
T9494 003:257.462 JLINK_Go()
T9494 003:257.546   CPU_ReadMem(4 bytes @ 0xE0001000)
T9494 003:264.066 - 6.603ms
T9494 003:264.126 JLINK_IsHalted()
T9494 003:270.513   CPU_ReadMem(2 bytes @ 0x20000000)
T9494 003:271.336 - 7.209ms returns TRUE
T9494 003:271.393 JLINK_ReadReg(R15 (PC))
T9494 003:271.422 - 0.029ms returns 0x20000000
T9494 003:271.447 JLINK_ClrBPEx(BPHandle = 0x00000004)
T9494 003:271.469 - 0.022ms returns 0x00
T9494 003:271.494 JLINK_ReadReg(R0)
T9494 003:271.516 - 0.021ms returns 0x00000000
T9494 003:342.819 JLINK_WriteMem(0x20000000, 0x188 Bytes, ...)
T9494 003:342.859   Data:  00 BE 0A E0 0D 78 2D 06 68 40 08 24 40 00 00 D3 ...
T9494 003:342.914   CPU_WriteMem(392 bytes @ 0x20000000)
T9494 003:348.422 - 5.602ms returns 0x188
T9494 003:348.522 JLINK_HasError()
T9494 003:348.552 JLINK_WriteReg(R0, 0x08000000)
T9494 003:348.578 - 0.026ms returns 0
T9494 003:348.600 JLINK_WriteReg(R1, 0x017D7840)
T9494 003:348.621 - 0.021ms returns 0
T9494 003:348.643 JLINK_WriteReg(R2, 0x00000002)
T9494 003:348.664 - 0.021ms returns 0
T9494 003:348.686 JLINK_WriteReg(R3, 0x00000000)
T9494 003:348.708 - 0.021ms returns 0
T9494 003:348.729 JLINK_WriteReg(R4, 0x00000000)
T9494 003:348.750 - 0.020ms returns 0
T9494 003:348.772 JLINK_WriteReg(R5, 0x00000000)
T9494 003:348.793 - 0.021ms returns 0
T9494 003:348.815 JLINK_WriteReg(R6, 0x00000000)
T9494 003:348.836 - 0.021ms returns 0
T9494 003:348.858 JLINK_WriteReg(R7, 0x00000000)
T9494 003:348.879 - 0.021ms returns 0
T9494 003:348.901 JLINK_WriteReg(R8, 0x00000000)
T9494 003:348.922 - 0.021ms returns 0
T9494 003:348.944 JLINK_WriteReg(R9, 0x20000184)
T9494 003:348.965 - 0.020ms returns 0
T9494 003:348.987 JLINK_WriteReg(R10, 0x00000000)
T9494 003:349.008 - 0.021ms returns 0
T9494 003:349.029 JLINK_WriteReg(R11, 0x00000000)
T9494 003:349.050 - 0.021ms returns 0
T9494 003:349.072 JLINK_WriteReg(R12, 0x00000000)
T9494 003:349.093 - 0.021ms returns 0
T9494 003:349.115 JLINK_WriteReg(R13 (SP), 0x20001000)
T9494 003:349.138 - 0.023ms returns 0
T9494 003:349.160 JLINK_WriteReg(R14, 0x20000001)
T9494 003:349.181 - 0.021ms returns 0
T9494 003:349.203 JLINK_WriteReg(R15 (PC), 0x2000005E)
T9494 003:349.224 - 0.021ms returns 0
T9494 003:349.246 JLINK_WriteReg(XPSR, 0x01000000)
T9494 003:349.268 - 0.021ms returns 0
T9494 003:349.289 JLINK_WriteReg(MSP, 0x20001000)
T9494 003:349.311 - 0.021ms returns 0
T9494 003:349.332 JLINK_WriteReg(PSP, 0x20001000)
T9494 003:349.354 - 0.021ms returns 0
T9494 003:349.375 JLINK_WriteReg(CFBP, 0x00000000)
T9494 003:349.396 - 0.020ms returns 0
T9494 003:349.419 JLINK_SetBPEx(Addr = 0x20000000, Type = 0xFFFFFFF2)
T9494 003:349.454   CPU_ReadMem(2 bytes @ 0x20000000)
T9494 003:350.277 - 0.856ms returns 0x00000005
T9494 003:350.332 JLINK_Go()
T9494 003:350.367   CPU_WriteMem(2 bytes @ 0x20000000)
T9494 003:351.086   CPU_ReadMem(4 bytes @ 0xE0001000)
T9494 003:357.657 - 7.325ms
T9494 003:357.701 JLINK_IsHalted()
T9494 003:364.306   CPU_ReadMem(2 bytes @ 0x20000000)
T9494 003:365.164 - 7.461ms returns TRUE
T9494 003:365.295 JLINK_ReadReg(R15 (PC))
T9494 003:365.377 - 0.080ms returns 0x20000000
T9494 003:365.402 JLINK_ClrBPEx(BPHandle = 0x00000005)
T9494 003:365.425 - 0.022ms returns 0x00
T9494 003:365.450 JLINK_ReadReg(R0)
T9494 003:365.474 - 0.025ms returns 0x00000000
T9494 003:372.118 JLINK_WriteMem(0x20000188, 0x278 Bytes, ...)
T9494 003:372.160   Data:  08 4E 00 20 71 02 00 08 47 14 00 08 AD 13 00 08 ...
T9494 003:372.224   CPU_WriteMem(632 bytes @ 0x20000188)
T9494 003:380.656 - 8.537ms returns 0x278
T9494 003:380.721 JLINK_WriteMem(0x20000400, 0x188 Bytes, ...)
T9494 003:380.745   Data:  FE E7 FE E7 FE E7 FE E7 FE E7 FE E7 FE E7 FE E7 ...
T9494 003:380.802   CPU_WriteMem(392 bytes @ 0x20000400)
T9494 003:386.273 - 5.549ms returns 0x188
T9494 003:386.342 JLINK_HasError()
T9494 003:386.375 JLINK_WriteReg(R0, 0x08000000)
T9494 003:386.406 - 0.031ms returns 0
T9494 003:386.432 JLINK_WriteReg(R1, 0x00000400)
T9494 003:386.454 - 0.022ms returns 0
T9494 003:386.479 JLINK_WriteReg(R2, 0x20000188)
T9494 003:386.501 - 0.022ms returns 0
T9494 003:386.526 JLINK_WriteReg(R3, 0x00000000)
T9494 003:386.548 - 0.021ms returns 0
T9494 003:386.573 JLINK_WriteReg(R4, 0x00000000)
T9494 003:386.594 - 0.022ms returns 0
T9494 003:386.619 JLINK_WriteReg(R5, 0x00000000)
T9494 003:386.641 - 0.021ms returns 0
T9494 003:386.665 JLINK_WriteReg(R6, 0x00000000)
T9494 003:386.687 - 0.021ms returns 0
T9494 003:386.712 JLINK_WriteReg(R7, 0x00000000)
T9494 003:386.734 - 0.021ms returns 0
T9494 003:386.759 JLINK_WriteReg(R8, 0x00000000)
T9494 003:386.781 - 0.022ms returns 0
T9494 003:386.806 JLINK_WriteReg(R9, 0x20000184)
T9494 003:386.828 - 0.021ms returns 0
T9494 003:386.852 JLINK_WriteReg(R10, 0x00000000)
T9494 003:386.874 - 0.021ms returns 0
T9494 003:386.899 JLINK_WriteReg(R11, 0x00000000)
T9494 003:386.920 - 0.022ms returns 0
T9494 003:386.945 JLINK_WriteReg(R12, 0x00000000)
T9494 003:386.967 - 0.021ms returns 0
T9494 003:386.992 JLINK_WriteReg(R13 (SP), 0x20001000)
T9494 003:387.015 - 0.023ms returns 0
T9494 003:387.040 JLINK_WriteReg(R14, 0x20000001)
T9494 003:387.061 - 0.021ms returns 0
T9494 003:387.086 JLINK_WriteReg(R15 (PC), 0x20000112)
T9494 003:387.108 - 0.022ms returns 0
T9494 003:387.133 JLINK_WriteReg(XPSR, 0x01000000)
T9494 003:387.154 - 0.022ms returns 0
T9494 003:387.179 JLINK_WriteReg(MSP, 0x20001000)
T9494 003:387.200 - 0.021ms returns 0
T9494 003:387.225 JLINK_WriteReg(PSP, 0x20001000)
T9494 003:387.247 - 0.021ms returns 0
T9494 003:387.271 JLINK_WriteReg(CFBP, 0x00000000)
T9494 003:387.293 - 0.021ms returns 0
T9494 003:387.318 JLINK_SetBPEx(Addr = 0x20000000, Type = 0xFFFFFFF2)
T9494 003:387.343 - 0.024ms returns 0x00000006
T9494 003:387.368 JLINK_Go()
T9494 003:387.403   CPU_ReadMem(4 bytes @ 0xE0001000)
T9494 003:394.079 - 6.710ms
T9494 003:394.134 JLINK_IsHalted()
T9494 003:394.855 - 0.718ms returns FALSE
T9494 003:394.885 JLINK_HasError()
T9494 003:398.873 JLINK_IsHalted()
T9494 003:405.292   CPU_ReadMem(2 bytes @ 0x20000000)
T9494 003:406.084 - 7.210ms returns TRUE
T9494 003:406.128 JLINK_ReadReg(R15 (PC))
T9494 003:406.155 - 0.026ms returns 0x20000000
T9494 003:406.178 JLINK_ClrBPEx(BPHandle = 0x00000006)
T9494 003:406.198 - 0.020ms returns 0x00
T9494 003:406.219 JLINK_ReadReg(R0)
T9494 003:406.238 - 0.018ms returns 0x00000000
T9494 003:443.028 JLINK_WriteMem(0x20000188, 0x278 Bytes, ...)
T9494 003:443.123   Data:  00 F0 1E F9 80 1B 05 28 07 D9 20 20 60 65 03 20 ...
T9494 003:443.184   CPU_WriteMem(632 bytes @ 0x20000188)
T9494 003:451.824 - 8.795ms returns 0x278
T9494 003:451.894 JLINK_WriteMem(0x20000400, 0x188 Bytes, ...)
T9494 003:451.916   Data:  03 20 00 F0 99 F8 00 20 00 F0 06 F8 00 F0 4A F8 ...
T9494 003:451.973   CPU_WriteMem(392 bytes @ 0x20000400)
T9494 003:457.467 - 5.569ms returns 0x188
T9494 003:457.570 JLINK_HasError()
T9494 003:457.604 JLINK_WriteReg(R0, 0x08000400)
T9494 003:457.634 - 0.031ms returns 0
T9494 003:457.660 JLINK_WriteReg(R1, 0x00000400)
T9494 003:457.684 - 0.023ms returns 0
T9494 003:457.710 JLINK_WriteReg(R2, 0x20000188)
T9494 003:457.732 - 0.021ms returns 0
T9494 003:457.756 JLINK_WriteReg(R3, 0x00000000)
T9494 003:457.778 - 0.021ms returns 0
T9494 003:457.803 JLINK_WriteReg(R4, 0x00000000)
T9494 003:457.824 - 0.021ms returns 0
T9494 003:457.850 JLINK_WriteReg(R5, 0x00000000)
T9494 003:457.872 - 0.021ms returns 0
T9494 003:457.896 JLINK_WriteReg(R6, 0x00000000)
T9494 003:457.918 - 0.021ms returns 0
T9494 003:457.943 JLINK_WriteReg(R7, 0x00000000)
T9494 003:457.964 - 0.022ms returns 0
T9494 003:457.990 JLINK_WriteReg(R8, 0x00000000)
T9494 003:458.012 - 0.022ms returns 0
T9494 003:458.036 JLINK_WriteReg(R9, 0x20000184)
T9494 003:458.058 - 0.021ms returns 0
T9494 003:458.083 JLINK_WriteReg(R10, 0x00000000)
T9494 003:458.104 - 0.021ms returns 0
T9494 003:458.129 JLINK_WriteReg(R11, 0x00000000)
T9494 003:458.150 - 0.021ms returns 0
T9494 003:458.175 JLINK_WriteReg(R12, 0x00000000)
T9494 003:458.196 - 0.021ms returns 0
T9494 003:458.222 JLINK_WriteReg(R13 (SP), 0x20001000)
T9494 003:458.244 - 0.023ms returns 0
T9494 003:458.269 JLINK_WriteReg(R14, 0x20000001)
T9494 003:458.291 - 0.021ms returns 0
T9494 003:458.316 JLINK_WriteReg(R15 (PC), 0x20000112)
T9494 003:458.338 - 0.022ms returns 0
T9494 003:458.362 JLINK_WriteReg(XPSR, 0x01000000)
T9494 003:458.384 - 0.022ms returns 0
T9494 003:458.409 JLINK_WriteReg(MSP, 0x20001000)
T9494 003:458.430 - 0.021ms returns 0
T9494 003:458.455 JLINK_WriteReg(PSP, 0x20001000)
T9494 003:458.477 - 0.021ms returns 0
T9494 003:458.501 JLINK_WriteReg(CFBP, 0x00000000)
T9494 003:458.523 - 0.021ms returns 0
T9494 003:458.549 JLINK_SetBPEx(Addr = 0x20000000, Type = 0xFFFFFFF2)
T9494 003:458.574 - 0.025ms returns 0x00000007
T9494 003:458.598 JLINK_Go()
T9494 003:458.635   CPU_ReadMem(4 bytes @ 0xE0001000)
T9494 003:465.280 - 6.679ms
T9494 003:465.377 JLINK_IsHalted()
T9494 003:466.279 - 0.901ms returns FALSE
T9494 003:466.377 JLINK_HasError()
T9494 003:476.489 JLINK_IsHalted()
T9494 003:483.001   CPU_ReadMem(2 bytes @ 0x20000000)
T9494 003:483.760 - 7.270ms returns TRUE
T9494 003:483.875 JLINK_ReadReg(R15 (PC))
T9494 003:483.907 - 0.032ms returns 0x20000000
T9494 003:483.931 JLINK_ClrBPEx(BPHandle = 0x00000007)
T9494 003:483.954 - 0.023ms returns 0x00
T9494 003:483.979 JLINK_ReadReg(R0)
T9494 003:484.001 - 0.023ms returns 0x00000000
T9494 003:490.782 JLINK_WriteMem(0x20000188, 0x278 Bytes, ...)
T9494 003:490.833   Data:  28 68 3D 4C 81 07 12 D5 40 07 03 D5 20 68 40 F4 ...
T9494 003:490.888   CPU_WriteMem(632 bytes @ 0x20000188)
T9494 003:499.343 - 8.559ms returns 0x278
T9494 003:499.426 JLINK_WriteMem(0x20000400, 0x188 Bytes, ...)
T9494 003:499.455   Data:  80 03 F7 D5 0C E0 FF F7 DF FD 06 46 05 E0 00 BF ...
T9494 003:499.521   CPU_WriteMem(392 bytes @ 0x20000400)
T9494 003:505.051 - 5.623ms returns 0x188
T9494 003:505.150 JLINK_HasError()
T9494 003:505.189 JLINK_WriteReg(R0, 0x08000800)
T9494 003:505.226 - 0.037ms returns 0
T9494 003:505.256 JLINK_WriteReg(R1, 0x00000400)
T9494 003:505.280 - 0.024ms returns 0
T9494 003:505.308 JLINK_WriteReg(R2, 0x20000188)
T9494 003:505.333 - 0.024ms returns 0
T9494 003:505.361 JLINK_WriteReg(R3, 0x00000000)
T9494 003:505.385 - 0.024ms returns 0
T9494 003:505.414 JLINK_WriteReg(R4, 0x00000000)
T9494 003:505.439 - 0.025ms returns 0
T9494 003:505.468 JLINK_WriteReg(R5, 0x00000000)
T9494 003:505.492 - 0.024ms returns 0
T9494 003:505.521 JLINK_WriteReg(R6, 0x00000000)
T9494 003:505.545 - 0.024ms returns 0
T9494 003:505.573 JLINK_WriteReg(R7, 0x00000000)
T9494 003:505.598 - 0.024ms returns 0
T9494 003:505.626 JLINK_WriteReg(R8, 0x00000000)
T9494 003:505.650 - 0.024ms returns 0
T9494 003:505.679 JLINK_WriteReg(R9, 0x20000184)
T9494 003:505.821 - 0.142ms returns 0
T9494 003:505.858 JLINK_WriteReg(R10, 0x00000000)
T9494 003:505.882 - 0.024ms returns 0
T9494 003:505.911 JLINK_WriteReg(R11, 0x00000000)
T9494 003:505.936 - 0.025ms returns 0
T9494 003:505.965 JLINK_WriteReg(R12, 0x00000000)
T9494 003:505.990 - 0.024ms returns 0
T9494 003:506.019 JLINK_WriteReg(R13 (SP), 0x20001000)
T9494 003:506.045 - 0.026ms returns 0
T9494 003:506.074 JLINK_WriteReg(R14, 0x20000001)
T9494 003:506.098 - 0.024ms returns 0
T9494 003:506.127 JLINK_WriteReg(R15 (PC), 0x20000112)
T9494 003:506.150 - 0.024ms returns 0
T9494 003:506.179 JLINK_WriteReg(XPSR, 0x01000000)
T9494 003:506.203 - 0.024ms returns 0
T9494 003:506.231 JLINK_WriteReg(MSP, 0x20001000)
T9494 003:506.256 - 0.024ms returns 0
T9494 003:506.284 JLINK_WriteReg(PSP, 0x20001000)
T9494 003:506.308 - 0.024ms returns 0
T9494 003:506.336 JLINK_WriteReg(CFBP, 0x00000000)
T9494 003:506.360 - 0.024ms returns 0
T9494 003:506.390 JLINK_SetBPEx(Addr = 0x20000000, Type = 0xFFFFFFF2)
T9494 003:506.420 - 0.030ms returns 0x00000008
T9494 003:506.449 JLINK_Go()
T9494 003:506.501   CPU_ReadMem(4 bytes @ 0xE0001000)
T9494 003:513.051 - 6.601ms
T9494 003:513.115 JLINK_IsHalted()
T9494 003:513.870 - 0.754ms returns FALSE
T9494 003:513.918 JLINK_HasError()
T9494 003:524.876 JLINK_IsHalted()
T9494 003:531.405   CPU_ReadMem(2 bytes @ 0x20000000)
T9494 003:532.162 - 7.286ms returns TRUE
T9494 003:532.218 JLINK_ReadReg(R15 (PC))
T9494 003:532.251 - 0.033ms returns 0x20000000
T9494 003:532.279 JLINK_ClrBPEx(BPHandle = 0x00000008)
T9494 003:532.304 - 0.025ms returns 0x00
T9494 003:532.330 JLINK_ReadReg(R0)
T9494 003:532.356 - 0.026ms returns 0x00000000
T9494 003:533.734 JLINK_WriteMem(0x20000188, 0x278 Bytes, ...)
T9494 003:533.772   Data:  30 60 F7 E7 FF F7 1C FD 00 99 41 1A 41 F2 88 30 ...
T9494 003:533.820   CPU_WriteMem(632 bytes @ 0x20000188)
T9494 003:542.188 - 8.452ms returns 0x278
T9494 003:542.247 JLINK_WriteMem(0x20000400, 0x188 Bytes, ...)
T9494 003:542.269   Data:  04 01 01 61 02 20 20 77 20 68 80 69 10 F4 40 7F ...
T9494 003:542.311   CPU_WriteMem(392 bytes @ 0x20000400)
T9494 003:547.768 - 5.519ms returns 0x188
T9494 003:547.844 JLINK_HasError()
T9494 003:547.886 JLINK_WriteReg(R0, 0x08000C00)
T9494 003:547.928 - 0.043ms returns 0
T9494 003:547.964 JLINK_WriteReg(R1, 0x00000400)
T9494 003:547.996 - 0.033ms returns 0
T9494 003:548.033 JLINK_WriteReg(R2, 0x20000188)
T9494 003:548.059 - 0.025ms returns 0
T9494 003:548.092 JLINK_WriteReg(R3, 0x00000000)
T9494 003:548.118 - 0.025ms returns 0
T9494 003:548.151 JLINK_WriteReg(R4, 0x00000000)
T9494 003:548.176 - 0.026ms returns 0
T9494 003:548.208 JLINK_WriteReg(R5, 0x00000000)
T9494 003:548.233 - 0.025ms returns 0
T9494 003:548.264 JLINK_WriteReg(R6, 0x00000000)
T9494 003:548.322 - 0.056ms returns 0
T9494 003:548.354 JLINK_WriteReg(R7, 0x00000000)
T9494 003:548.375 - 0.021ms returns 0
T9494 003:548.399 JLINK_WriteReg(R8, 0x00000000)
T9494 003:548.420 - 0.021ms returns 0
T9494 003:548.444 JLINK_WriteReg(R9, 0x20000184)
T9494 003:548.465 - 0.021ms returns 0
T9494 003:548.489 JLINK_WriteReg(R10, 0x00000000)
T9494 003:548.510 - 0.021ms returns 0
T9494 003:548.533 JLINK_WriteReg(R11, 0x00000000)
T9494 003:548.554 - 0.020ms returns 0
T9494 003:548.577 JLINK_WriteReg(R12, 0x00000000)
T9494 003:548.598 - 0.020ms returns 0
T9494 003:548.622 JLINK_WriteReg(R13 (SP), 0x20001000)
T9494 003:548.643 - 0.021ms returns 0
T9494 003:548.671 JLINK_WriteReg(R14, 0x20000001)
T9494 003:548.692 - 0.021ms returns 0
T9494 003:548.714 JLINK_WriteReg(R15 (PC), 0x20000112)
T9494 003:548.774 - 0.058ms returns 0
T9494 003:548.812 JLINK_WriteReg(XPSR, 0x01000000)
T9494 003:548.838 - 0.027ms returns 0
T9494 003:548.870 JLINK_WriteReg(MSP, 0x20001000)
T9494 003:548.896 - 0.026ms returns 0
T9494 003:548.927 JLINK_WriteReg(PSP, 0x20001000)
T9494 003:548.952 - 0.025ms returns 0
T9494 003:548.983 JLINK_WriteReg(CFBP, 0x00000000)
T9494 003:549.008 - 0.025ms returns 0
T9494 003:549.039 JLINK_SetBPEx(Addr = 0x20000000, Type = 0xFFFFFFF2)
T9494 003:549.074 - 0.035ms returns 0x00000009
T9494 003:549.108 JLINK_Go()
T9494 003:549.155   CPU_ReadMem(4 bytes @ 0xE0001000)
T9494 003:555.742 - 6.632ms
T9494 003:555.799 JLINK_IsHalted()
T9494 003:556.598 - 0.798ms returns FALSE
T9494 003:556.631 JLINK_HasError()
T9494 003:559.810 JLINK_IsHalted()
T9494 003:566.224   CPU_ReadMem(2 bytes @ 0x20000000)
T9494 003:566.999 - 7.188ms returns TRUE
T9494 003:567.043 JLINK_ReadReg(R15 (PC))
T9494 003:567.075 - 0.031ms returns 0x20000000
T9494 003:567.098 JLINK_ClrBPEx(BPHandle = 0x00000009)
T9494 003:567.120 - 0.022ms returns 0x00
T9494 003:567.143 JLINK_ReadReg(R0)
T9494 003:567.164 - 0.021ms returns 0x00000000
T9494 003:569.297 JLINK_WriteMem(0x20000188, 0x278 Bytes, ...)
T9494 003:569.338   Data:  07 D5 02 F0 20 01 31 43 03 D0 21 6C 41 F0 08 01 ...
T9494 003:569.385   CPU_WriteMem(632 bytes @ 0x20000188)
T9494 003:577.787 - 8.488ms returns 0x278
T9494 003:577.855 JLINK_WriteMem(0x20000400, 0x188 Bytes, ...)
T9494 003:577.881   Data:  10 B5 86 B0 04 46 14 21 68 46 FF F7 51 F8 18 49 ...
T9494 003:577.933   CPU_WriteMem(392 bytes @ 0x20000400)
T9494 003:583.438 - 5.581ms returns 0x188
T9494 003:583.520 JLINK_HasError()
T9494 003:583.557 JLINK_WriteReg(R0, 0x08001000)
T9494 003:583.593 - 0.037ms returns 0
T9494 003:583.622 JLINK_WriteReg(R1, 0x00000400)
T9494 003:583.647 - 0.025ms returns 0
T9494 003:583.676 JLINK_WriteReg(R2, 0x20000188)
T9494 003:583.700 - 0.024ms returns 0
T9494 003:583.729 JLINK_WriteReg(R3, 0x00000000)
T9494 003:583.754 - 0.024ms returns 0
T9494 003:583.783 JLINK_WriteReg(R4, 0x00000000)
T9494 003:583.808 - 0.024ms returns 0
T9494 003:583.836 JLINK_WriteReg(R5, 0x00000000)
T9494 003:583.861 - 0.025ms returns 0
T9494 003:583.890 JLINK_WriteReg(R6, 0x00000000)
T9494 003:583.915 - 0.024ms returns 0
T9494 003:583.941 JLINK_WriteReg(R7, 0x00000000)
T9494 003:583.964 - 0.023ms returns 0
T9494 003:583.994 JLINK_WriteReg(R8, 0x00000000)
T9494 003:584.018 - 0.025ms returns 0
T9494 003:584.047 JLINK_WriteReg(R9, 0x20000184)
T9494 003:584.072 - 0.024ms returns 0
T9494 003:584.100 JLINK_WriteReg(R10, 0x00000000)
T9494 003:584.125 - 0.024ms returns 0
T9494 003:584.151 JLINK_WriteReg(R11, 0x00000000)
T9494 003:584.176 - 0.025ms returns 0
T9494 003:584.205 JLINK_WriteReg(R12, 0x00000000)
T9494 003:584.230 - 0.025ms returns 0
T9494 003:584.259 JLINK_WriteReg(R13 (SP), 0x20001000)
T9494 003:584.285 - 0.026ms returns 0
T9494 003:584.313 JLINK_WriteReg(R14, 0x20000001)
T9494 003:584.338 - 0.025ms returns 0
T9494 003:584.409 JLINK_WriteReg(R15 (PC), 0x20000112)
T9494 003:584.453 - 0.044ms returns 0
T9494 003:584.477 JLINK_WriteReg(XPSR, 0x01000000)
T9494 003:584.498 - 0.021ms returns 0
T9494 003:584.520 JLINK_WriteReg(MSP, 0x20001000)
T9494 003:584.540 - 0.020ms returns 0
T9494 003:584.561 JLINK_WriteReg(PSP, 0x20001000)
T9494 003:584.582 - 0.020ms returns 0
T9494 003:584.603 JLINK_WriteReg(CFBP, 0x00000000)
T9494 003:584.623 - 0.020ms returns 0
T9494 003:584.646 JLINK_SetBPEx(Addr = 0x20000000, Type = 0xFFFFFFF2)
T9494 003:584.670 - 0.024ms returns 0x0000000A
T9494 003:584.692 JLINK_Go()
T9494 003:584.727   CPU_ReadMem(4 bytes @ 0xE0001000)
T9494 003:591.411 - 6.718ms
T9494 003:591.488 JLINK_IsHalted()
T9494 003:592.290 - 0.802ms returns FALSE
T9494 003:592.326 JLINK_HasError()
T9494 003:595.103 JLINK_IsHalted()
T9494 003:601.436   CPU_ReadMem(2 bytes @ 0x20000000)
T9494 003:602.369 - 7.264ms returns TRUE
T9494 003:602.427 JLINK_ReadReg(R15 (PC))
T9494 003:602.459 - 0.033ms returns 0x20000000
T9494 003:602.486 JLINK_ClrBPEx(BPHandle = 0x0000000A)
T9494 003:602.513 - 0.026ms returns 0x00
T9494 003:602.540 JLINK_ReadReg(R0)
T9494 003:602.564 - 0.024ms returns 0x00000000
T9494 003:603.915 JLINK_WriteMem(0x20000188, 0x278 Bytes, ...)
T9494 003:603.950   Data:  01 00 00 90 08 BD 00 00 30 38 02 40 0C 48 10 B5 ...
T9494 003:603.995   CPU_WriteMem(632 bytes @ 0x20000188)
T9494 003:612.448 - 8.532ms returns 0x278
T9494 003:612.509 JLINK_WriteMem(0x20000400, 0x188 Bytes, ...)
T9494 003:612.536   Data:  02 68 81 6A 52 68 C2 F3 08 02 0A 80 81 6A 89 1C ...
T9494 003:612.588   CPU_WriteMem(392 bytes @ 0x20000400)
T9494 003:618.256 - 5.746ms returns 0x188
T9494 003:618.321 JLINK_HasError()
T9494 003:618.351 JLINK_WriteReg(R0, 0x08001400)
T9494 003:618.378 - 0.027ms returns 0
T9494 003:618.403 JLINK_WriteReg(R1, 0x00000400)
T9494 003:618.424 - 0.021ms returns 0
T9494 003:618.448 JLINK_WriteReg(R2, 0x20000188)
T9494 003:618.470 - 0.021ms returns 0
T9494 003:618.494 JLINK_WriteReg(R3, 0x00000000)
T9494 003:618.515 - 0.021ms returns 0
T9494 003:618.538 JLINK_WriteReg(R4, 0x00000000)
T9494 003:618.559 - 0.021ms returns 0
T9494 003:618.583 JLINK_WriteReg(R5, 0x00000000)
T9494 003:618.604 - 0.021ms returns 0
T9494 003:618.630 JLINK_WriteReg(R6, 0x00000000)
T9494 003:618.651 - 0.021ms returns 0
T9494 003:618.676 JLINK_WriteReg(R7, 0x00000000)
T9494 003:618.697 - 0.021ms returns 0
T9494 003:618.722 JLINK_WriteReg(R8, 0x00000000)
T9494 003:618.744 - 0.022ms returns 0
T9494 003:618.768 JLINK_WriteReg(R9, 0x20000184)
T9494 003:618.790 - 0.021ms returns 0
T9494 003:618.815 JLINK_WriteReg(R10, 0x00000000)
T9494 003:618.836 - 0.021ms returns 0
T9494 003:618.861 JLINK_WriteReg(R11, 0x00000000)
T9494 003:618.882 - 0.021ms returns 0
T9494 003:618.907 JLINK_WriteReg(R12, 0x00000000)
T9494 003:618.928 - 0.021ms returns 0
T9494 003:618.953 JLINK_WriteReg(R13 (SP), 0x20001000)
T9494 003:618.976 - 0.023ms returns 0
T9494 003:619.000 JLINK_WriteReg(R14, 0x20000001)
T9494 003:619.022 - 0.021ms returns 0
T9494 003:619.046 JLINK_WriteReg(R15 (PC), 0x20000112)
T9494 003:619.068 - 0.021ms returns 0
T9494 003:619.092 JLINK_WriteReg(XPSR, 0x01000000)
T9494 003:619.113 - 0.021ms returns 0
T9494 003:619.137 JLINK_WriteReg(MSP, 0x20001000)
T9494 003:619.158 - 0.021ms returns 0
T9494 003:619.182 JLINK_WriteReg(PSP, 0x20001000)
T9494 003:619.204 - 0.021ms returns 0
T9494 003:619.228 JLINK_WriteReg(CFBP, 0x00000000)
T9494 003:619.249 - 0.021ms returns 0
T9494 003:619.274 JLINK_SetBPEx(Addr = 0x20000000, Type = 0xFFFFFFF2)
T9494 003:619.298 - 0.024ms returns 0x0000000B
T9494 003:619.323 JLINK_Go()
T9494 003:619.360   CPU_ReadMem(4 bytes @ 0xE0001000)
T9494 003:625.924 - 6.600ms
T9494 003:626.002 JLINK_IsHalted()
T9494 003:626.721 - 0.717ms returns FALSE
T9494 003:626.794 JLINK_HasError()
T9494 003:630.912 JLINK_IsHalted()
T9494 003:637.518   CPU_ReadMem(2 bytes @ 0x20000000)
T9494 003:638.278 - 7.365ms returns TRUE
T9494 003:638.318 JLINK_ReadReg(R15 (PC))
T9494 003:638.344 - 0.025ms returns 0x20000000
T9494 003:638.365 JLINK_ClrBPEx(BPHandle = 0x0000000B)
T9494 003:638.386 - 0.020ms returns 0x00
T9494 003:638.406 JLINK_ReadReg(R0)
T9494 003:638.426 - 0.019ms returns 0x00000000
T9494 003:645.495 JLINK_WriteMem(0x20000188, 0x278 Bytes, ...)
T9494 003:645.541   Data:  F5 F0 58 43 01 EB 80 00 06 EB C0 00 B0 FB F5 F0 ...
T9494 003:645.592   CPU_WriteMem(632 bytes @ 0x20000188)
T9494 003:654.130 - 8.633ms returns 0x278
T9494 003:654.190 JLINK_WriteMem(0x20000400, 0x188 Bytes, ...)
T9494 003:654.214   Data:  69 6E 69 74 20 66 69 6E 69 73 68 65 64 0D 0A 00 ...
T9494 003:654.260   CPU_WriteMem(392 bytes @ 0x20000400)
T9494 003:659.661 - 5.469ms returns 0x188
T9494 003:659.744 JLINK_HasError()
T9494 003:659.785 JLINK_WriteReg(R0, 0x08001800)
T9494 003:659.820 - 0.034ms returns 0
T9494 003:659.851 JLINK_WriteReg(R1, 0x00000400)
T9494 003:659.878 - 0.027ms returns 0
T9494 003:659.908 JLINK_WriteReg(R2, 0x20000188)
T9494 003:659.935 - 0.027ms returns 0
T9494 003:659.966 JLINK_WriteReg(R3, 0x00000000)
T9494 003:659.992 - 0.026ms returns 0
T9494 003:660.023 JLINK_WriteReg(R4, 0x00000000)
T9494 003:660.048 - 0.025ms returns 0
T9494 003:660.078 JLINK_WriteReg(R5, 0x00000000)
T9494 003:660.104 - 0.026ms returns 0
T9494 003:660.135 JLINK_WriteReg(R6, 0x00000000)
T9494 003:660.160 - 0.025ms returns 0
T9494 003:660.191 JLINK_WriteReg(R7, 0x00000000)
T9494 003:660.216 - 0.025ms returns 0
T9494 003:660.247 JLINK_WriteReg(R8, 0x00000000)
T9494 003:660.273 - 0.026ms returns 0
T9494 003:660.314 JLINK_WriteReg(R9, 0x20000184)
T9494 003:660.345 - 0.031ms returns 0
T9494 003:660.376 JLINK_WriteReg(R10, 0x00000000)
T9494 003:660.402 - 0.026ms returns 0
T9494 003:660.432 JLINK_WriteReg(R11, 0x00000000)
T9494 003:660.458 - 0.025ms returns 0
T9494 003:660.488 JLINK_WriteReg(R12, 0x00000000)
T9494 003:660.514 - 0.026ms returns 0
T9494 003:660.544 JLINK_WriteReg(R13 (SP), 0x20001000)
T9494 003:660.570 - 0.027ms returns 0
T9494 003:660.599 JLINK_WriteReg(R14, 0x20000001)
T9494 003:660.625 - 0.026ms returns 0
T9494 003:660.656 JLINK_WriteReg(R15 (PC), 0x20000112)
T9494 003:660.682 - 0.027ms returns 0
T9494 003:660.712 JLINK_WriteReg(XPSR, 0x01000000)
T9494 003:660.738 - 0.025ms returns 0
T9494 003:660.768 JLINK_WriteReg(MSP, 0x20001000)
T9494 003:660.793 - 0.025ms returns 0
T9494 003:660.822 JLINK_WriteReg(PSP, 0x20001000)
T9494 003:660.848 - 0.025ms returns 0
T9494 003:660.878 JLINK_WriteReg(CFBP, 0x00000000)
T9494 003:660.903 - 0.024ms returns 0
T9494 003:660.934 JLINK_SetBPEx(Addr = 0x20000000, Type = 0xFFFFFFF2)
T9494 003:660.964 - 0.030ms returns 0x0000000C
T9494 003:660.995 JLINK_Go()
T9494 003:661.044   CPU_ReadMem(4 bytes @ 0xE0001000)
T9494 003:667.670 - 6.673ms
T9494 003:667.750 JLINK_IsHalted()
T9494 003:668.497 - 0.747ms returns FALSE
T9494 003:668.545 JLINK_HasError()
T9494 003:678.304 JLINK_IsHalted()
T9494 003:684.830   CPU_ReadMem(2 bytes @ 0x20000000)
T9494 003:685.629 - 7.326ms returns TRUE
T9494 003:685.673 JLINK_ReadReg(R15 (PC))
T9494 003:685.716 - 0.043ms returns 0x20000000
T9494 003:685.745 JLINK_ClrBPEx(BPHandle = 0x0000000C)
T9494 003:685.766 - 0.020ms returns 0x00
T9494 003:685.788 JLINK_ReadReg(R0)
T9494 003:685.810 - 0.021ms returns 0x00000000
T9494 003:687.000 JLINK_WriteMem(0x20000188, 0x278 Bytes, ...)
T9494 003:687.034   Data:  6F 0D 0A 00 10 B5 04 46 05 A0 FF F7 4D FE 00 E0 ...
T9494 003:687.084   CPU_WriteMem(632 bytes @ 0x20000188)
T9494 003:695.547 - 8.545ms returns 0x278
T9494 003:695.605 JLINK_WriteMem(0x20000400, 0x188 Bytes, ...)
T9494 003:695.626   Data:  11 88 BF F3 4F 8F BF F3 6F 8F FE E7 20 6B 00 F0 ...
T9494 003:695.670   CPU_WriteMem(392 bytes @ 0x20000400)
T9494 003:701.094 - 5.487ms returns 0x188
T9494 003:701.160 JLINK_HasError()
T9494 003:701.188 JLINK_WriteReg(R0, 0x08001C00)
T9494 003:701.216 - 0.028ms returns 0
T9494 003:701.238 JLINK_WriteReg(R1, 0x00000400)
T9494 003:701.258 - 0.020ms returns 0
T9494 003:701.281 JLINK_WriteReg(R2, 0x20000188)
T9494 003:701.301 - 0.019ms returns 0
T9494 003:701.324 JLINK_WriteReg(R3, 0x00000000)
T9494 003:701.343 - 0.019ms returns 0
T9494 003:701.365 JLINK_WriteReg(R4, 0x00000000)
T9494 003:701.385 - 0.020ms returns 0
T9494 003:701.408 JLINK_WriteReg(R5, 0x00000000)
T9494 003:701.428 - 0.020ms returns 0
T9494 003:701.450 JLINK_WriteReg(R6, 0x00000000)
T9494 003:701.470 - 0.020ms returns 0
T9494 003:701.492 JLINK_WriteReg(R7, 0x00000000)
T9494 003:701.512 - 0.020ms returns 0
T9494 003:701.533 JLINK_WriteReg(R8, 0x00000000)
T9494 003:701.552 - 0.019ms returns 0
T9494 003:701.575 JLINK_WriteReg(R9, 0x20000184)
T9494 003:701.594 - 0.019ms returns 0
T9494 003:701.618 JLINK_WriteReg(R10, 0x00000000)
T9494 003:701.637 - 0.019ms returns 0
T9494 003:701.660 JLINK_WriteReg(R11, 0x00000000)
T9494 003:701.679 - 0.019ms returns 0
T9494 003:701.701 JLINK_WriteReg(R12, 0x00000000)
T9494 003:701.721 - 0.019ms returns 0
T9494 003:701.744 JLINK_WriteReg(R13 (SP), 0x20001000)
T9494 003:701.765 - 0.021ms returns 0
T9494 003:701.787 JLINK_WriteReg(R14, 0x20000001)
T9494 003:701.807 - 0.019ms returns 0
T9494 003:701.830 JLINK_WriteReg(R15 (PC), 0x20000112)
T9494 003:701.850 - 0.020ms returns 0
T9494 003:701.873 JLINK_WriteReg(XPSR, 0x01000000)
T9494 003:701.892 - 0.019ms returns 0
T9494 003:701.914 JLINK_WriteReg(MSP, 0x20001000)
T9494 003:701.934 - 0.019ms returns 0
T9494 003:702.037 JLINK_WriteReg(PSP, 0x20001000)
T9494 003:702.081 - 0.044ms returns 0
T9494 003:702.112 JLINK_WriteReg(CFBP, 0x00000000)
T9494 003:702.137 - 0.024ms returns 0
T9494 003:702.173 JLINK_SetBPEx(Addr = 0x20000000, Type = 0xFFFFFFF2)
T9494 003:702.210 - 0.037ms returns 0x0000000D
T9494 003:702.236 JLINK_Go()
T9494 003:702.288   CPU_ReadMem(4 bytes @ 0xE0001000)
T9494 003:708.872 - 6.634ms
T9494 003:708.937 JLINK_IsHalted()
T9494 003:709.732 - 0.794ms returns FALSE
T9494 003:709.777 JLINK_HasError()
T9494 003:713.796 JLINK_IsHalted()
T9494 003:720.282   CPU_ReadMem(2 bytes @ 0x20000000)
T9494 003:721.084 - 7.286ms returns TRUE
T9494 003:721.158 JLINK_ReadReg(R15 (PC))
T9494 003:721.188 - 0.030ms returns 0x20000000
T9494 003:721.212 JLINK_ClrBPEx(BPHandle = 0x0000000D)
T9494 003:721.235 - 0.023ms returns 0x00
T9494 003:721.259 JLINK_ReadReg(R0)
T9494 003:721.282 - 0.022ms returns 0x00000000
T9494 003:722.506 JLINK_WriteMem(0x20000188, 0x278 Bytes, ...)
